T4030 000:004.313   SEGGER J-Link V9.74 Log File
T4030 000:004.418   DLL Compiled: Sep  2 2026 12:26:16
T4030 000:004.423   Logging started @ 2026-10-09 03:24
T4030 000:004.427   Process: D:\Users\mym02\AppData\Local\Keil_v5\UV4\UV4.exe
T4030 000:004.435 - 4.430ms 
T4030 000:004.441 JLINK_SetWarnOutHandler(...)
T4030 000:004.446 - 0.005ms 
T4030 000:004.452 JLINK_OpenEx(...)
T4030 000:011.489   Firmware: J-Link V9 compiled May  7 2021 16:26:12
T4030 000:012.333   Firmware: J-Link V9 compiled May  7 2021 16:26:12
T4030 000:012.449   Decompressing FW timestamp took 81 us
T4030 000:018.337   Hardware: V9.70
T4030 000:018.369   S/N: 150711243
T4030 000:018.381   OEM: SEGGER
T4030 000:018.393   Feature(s): GDB, RDI, FlashBP, FlashDL, JFlash
T4030 000:019.311   Bootloader: (FW returned invalid version)
T4030 000:021.293   TELNET listener socket opened on port 19021
T4030 000:021.514   WEBSRV WEBSRV_Init(): Starting webserver thread(s)
T4030 000:021.635   WEBSRV Failed to put socket into listener state (port 19080)
T4030 000:021.780   WEBSRV Webserver running on local port 19081
T4030 000:021.899   Looking for J-Link GUI Server exe at: D:\Users\mym02\AppData\Local\Keil_v5\ARM\Segger\JLinkGUIServer.exe
T4030 000:021.968   Looking for J-Link GUI Server exe at: D:\J-link\JLink_V974\JLinkGUIServer.exe
T4030 000:022.009   Forking J-Link GUI Server: D:\J-link\JLink_V974\JLinkGUIServer.exe
T4030 000:072.820   J-Link GUI Server info: "J-Link GUI server V9.74 "
T4030 000:073.285 - 68.831ms returns "O.K."
T4030 000:073.325 JLINK_GetEmuCaps()
T4030 000:073.332 - 0.006ms returns 0xB9FF7BBF
T4030 000:073.340 JLINK_TIF_GetAvailable(...)
T4030 000:073.537 - 0.196ms 
T4030 000:073.559 JLINK_SetErrorOutHandler(...)
T4030 000:073.564 - 0.005ms 
T4030 000:073.585 JLINK_ExecCommand("ProjectFile = "D:\mym\NXN\changyu\Brushed fan\source code\NX32G0001\MDK-ARM\JLinkSettings.ini"", ...). 
T4030 000:086.444   Ref file found at: D:\Users\mym02\AppData\Local\Keil_v5\ARM\Segger\JLinkDevices.ref
T4030 000:086.517   REF file references invalid XML file: D:\J-link\JLink_V974\JLinkDevices.xml
T4030 000:091.448   Device "CORTEX-M0" selected.
T4030 000:091.704 - 18.120ms returns 0x00
T4030 000:094.457 JLINK_ExecCommand("Device = MM32G0001A1TC", ...). 
T4030 000:096.878   Device "CORTEX-M0" selected.
T4030 000:097.091 - 2.633ms returns 0x00
T4030 000:097.108   ERROR: Unknown command
T4030 000:097.117 JLINK_GetHardwareVersion()
T4030 000:097.122 - 0.004ms returns 97000
T4030 000:097.127 JLINK_GetDLLVersion()
T4030 000:097.130 - 0.003ms returns 97400
T4030 000:097.135 JLINK_GetOEMString(...)
T4030 000:097.140 JLINK_GetFirmwareString(...)
T4030 000:097.145 - 0.004ms 
T4030 000:107.504 JLINK_GetDLLVersion()
T4030 000:107.531 - 0.027ms returns 97400
T4030 000:107.539 JLINK_GetCompileDateTime()
T4030 000:107.543 - 0.004ms 
T4030 000:109.714 JLINK_GetFirmwareString(...)
T4030 000:109.726 - 0.011ms 
T4030 000:111.988 JLINK_GetHardwareVersion()
T4030 000:111.999 - 0.011ms returns 97000
T4030 000:115.782 JLINK_GetSN()
T4030 000:115.803 - 0.021ms returns 150711243
T4030 000:118.213 JLINK_GetOEMString(...)
T4030 000:125.132 JLINK_TIF_Select(JLINKARM_TIF_SWD)
T4030 000:125.921 - 0.788ms returns 0x00
T4030 000:125.958 JLINK_HasError()
T4030 000:125.976 JLINK_SetSpeed(10000)
T4030 000:126.086 - 0.111ms 
T4030 000:126.109 JLINK_GetId()
T4030 000:129.720   Found SW-DP with ID 0x0BB11477
T4030 000:134.822   DPIDR: 0x0BB11477
T4030 000:138.196   CoreSight SoC-400 or earlier
T4030 000:140.350   Scanning AP map to find all available APs
T4030 000:144.058   AP[1]: Stopped AP scan as end of AP map has been reached
T4030 000:146.197   AP[0]: AHB-AP (IDR: 0x04770021, ADDR: 0x00000000)
T4030 000:151.183   Iterating through AP map to find AHB-AP to use
T4030 000:154.450   AP[0]: Core found
T4030 000:157.089   AP[0]: AHB-AP ROM base: 0xE00FF000
T4030 000:159.880   CPUID register: 0x410CC200. Implementer code: 0x41 (ARM)
T4030 000:162.169   Found Cortex-M0 r0p0, Little endian.
T4030 000:162.635   -- Max. mem block: 0x00010968
T4030 000:163.285   CPU_ReadMem(4 bytes @ 0xE000EDF0)
T4030 000:163.561   CPU_ReadMem(4 bytes @ 0xE0002000)
T4030 000:169.741   FPUnit: 3 code (BP) slots and 0 literal slots
T4030 000:169.770   CPU_ReadMem(4 bytes @ 0xE000EDFC)
T4030 000:170.151   CPU_ReadMem(4 bytes @ 0xE0001000)
T4030 000:170.487   CPU_WriteMem(4 bytes @ 0xE0001000)
T4030 000:173.386   CoreSight components:
T4030 000:175.823   ROMTbl[0] @ E00FF000
T4030 000:175.844   CPU_ReadMem(64 bytes @ 0xE00FF000)
T4030 000:176.423   CPU_ReadMem(32 bytes @ 0xE000EFE0)
T4030 000:179.099   [0][0]: E000E000 CID B105E00D PID 000BB008 SCS
T4030 000:179.116   CPU_ReadMem(32 bytes @ 0xE0001FE0)
T4030 000:183.783   [0][1]: E0001000 CID B105E00D PID 000BB00A DWT
T4030 000:183.818   CPU_ReadMem(32 bytes @ 0xE0002FE0)
T4030 000:187.275   [0][2]: E0002000 CID B105E00D PID 000BB00B FPB
T4030 000:187.579 - 61.469ms returns 0x0BB11477
T4030 000:187.663 JLINK_GetDLLVersion()
T4030 000:187.673 - 0.009ms returns 97400
T4030 000:187.687 JLINK_CORE_GetFound()
T4030 000:187.696 - 0.008ms returns 0x60000FF
T4030 000:187.705 JLINK_GetDebugInfo(0x100 = JLINKARM_ROM_TABLE_ADDR_INDEX)
T4030 000:187.716   Value=0xE00FF000
T4030 000:187.728 - 0.023ms returns 0
T4030 000:190.376 JLINK_GetDebugInfo(0x100 = JLINKARM_ROM_TABLE_ADDR_INDEX)
T4030 000:190.391   Value=0xE00FF000
T4030 000:190.397 - 0.022ms returns 0
T4030 000:190.402 JLINK_GetDebugInfo(0x101 = JLINKARM_DEBUG_INFO_ETM_ADDR_INDEX)
T4030 000:190.406   Value=0x00000000
T4030 000:190.412 - 0.009ms returns 0
T4030 000:190.417 JLINK_ReadMemEx(0xE0041FF0, 0x10 Bytes, Flags = 0x02000004)
T4030 000:190.442   CPU_ReadMem(16 bytes @ 0xE0041FF0)
T4030 000:190.947   Data:  00 00 00 00 00 00 00 00 00 00 00 00 00 00 00 00
T4030 000:190.961 - 0.543ms returns 16 (0x10)
T4030 000:190.986 JLINK_GetDebugInfo(0x102 = JLINKARM_DEBUG_INFO_MTB_ADDR_INDEX)
T4030 000:190.992   Value=0x00000000
T4030 000:190.998 - 0.011ms returns 0
T4030 000:191.004 JLINK_GetDebugInfo(0x103 = JLINKARM_DEBUG_INFO_TPIU_ADDR_INDEX)
T4030 000:191.008   Value=0x00000000
T4030 000:191.013 - 0.009ms returns 0
T4030 000:191.018 JLINK_GetDebugInfo(0x104 = JLINKARM_DEBUG_INFO_ITM_ADDR_INDEX)
T4030 000:191.022   Value=0xE0000000
T4030 000:191.027 - 0.009ms returns 0
T4030 000:191.031 JLINK_GetDebugInfo(0x105 = JLINKARM_DEBUG_INFO_DWT_ADDR_INDEX)
T4030 000:191.035   Value=0xE0001000
T4030 000:191.040 - 0.009ms returns 0
T4030 000:191.045 JLINK_GetDebugInfo(0x106 = JLINKARM_DEBUG_INFO_FPB_ADDR_INDEX)
T4030 000:191.048   Value=0xE0002000
T4030 000:191.054 - 0.009ms returns 0
T4030 000:191.058 JLINK_GetDebugInfo(0x107 = JLINKARM_DEBUG_INFO_NVIC_ADDR_INDEX)
T4030 000:191.062   Value=0xE000E000
T4030 000:191.067 - 0.009ms returns 0
T4030 000:191.072 JLINK_GetDebugInfo(0x10C = JLINKARM_DEBUG_INFO_DBG_ADDR_INDEX)
T4030 000:191.075   Value=0xE000EDF0
T4030 000:191.081 - 0.009ms returns 0
T4030 000:191.086 JLINK_GetDebugInfo(0x01 = Unknown)
T4030 000:191.090   Value=0x00000000
T4030 000:191.095 - 0.009ms returns 0
T4030 000:191.102 JLINK_ReadMemU32(0xE000ED00, 0x1 Items)
T4030 000:191.108   CPU_ReadMem(4 bytes @ 0xE000ED00)
T4030 000:191.371   Data:  00 C2 0C 41
T4030 000:191.380   Debug reg: CPUID
T4030 000:191.386 - 0.284ms returns 1 (0x1)
T4030 000:191.398 JLINK_GetDebugInfo(0x10F = JLINKARM_DEBUG_INFO_HAS_CORTEX_M_SECURITY_EXT_INDEX)
T4030 000:191.402   Value=0x00000000
T4030 000:191.407 - 0.009ms returns 0
T4030 000:191.413 JLINK_HasError()
T4030 000:191.418 JLINK_SetResetType(JLINKARM_CM3_RESET_TYPE_NORMAL)
T4030 000:191.423 - 0.004ms returns JLINKARM_CM3_RESET_TYPE_NORMAL
T4030 000:191.427 JLINK_Reset()
T4030 000:191.484   JLINK_GetResetTypeDesc
T4030 000:191.490   - 0.006ms 
T4030 000:194.417   Reset type: NORMAL (https://kb.segger.com/J-Link_Reset_Strategies)
T4030 000:194.432   CPU is running
T4030 000:194.440   CPU_WriteMem(4 bytes @ 0xE000EDF0)
T4030 000:194.763   CPU is running
T4030 000:194.789   CPU_WriteMem(4 bytes @ 0xE000EDFC)
T4030 000:199.487   Reset: Halt core after reset via DEMCR.VC_CORERESET.
T4030 000:203.527   Reset: Reset device via AIRCR.SYSRESETREQ.
T4030 000:203.619   CPU is running
T4030 000:203.653   CPU_WriteMem(4 bytes @ 0xE000ED0C)
T4030 000:256.583   CPU_ReadMem(4 bytes @ 0xE000EDF0)
T4030 000:256.900   CPU_ReadMem(4 bytes @ 0xE000EDF0)
T4030 000:259.123   CPU_WriteMem(4 bytes @ 0xE000EDFC)
T4030 000:265.029   CPU_ReadMem(4 bytes @ 0xE000EDF0)
T4030 000:267.220   CPU_WriteMem(4 bytes @ 0xE0002000)
T4030 000:267.504   CPU_ReadMem(4 bytes @ 0xE000EDFC)
T4030 000:267.790   CPU_ReadMem(4 bytes @ 0xE0001000)
T4030 000:268.057   CPU_WriteMem(4 bytes @ 0xE0001000)
T4030 000:268.339 - 76.910ms 
T4030 000:268.427 JLINK_Halt()
T4030 000:268.453 - 0.025ms returns 0x00
T4030 000:268.466 JLINK_ReadMemU32(0xE000EDF0, 0x1 Items)
T4030 000:268.484   CPU_ReadMem(4 bytes @ 0xE000EDF0)
T4030 000:268.885   Data:  03 00 03 00
T4030 000:268.899   Debug reg: DHCSR
T4030 000:268.911 - 0.445ms returns 1 (0x1)
T4030 000:268.936 JLINK_WriteU32(0xE000EDF0, 0xA05F0003)
T4030 000:268.944   Debug reg: DHCSR
T4030 000:269.375   CPU_WriteMem(4 bytes @ 0xE000EDF0)
T4030 000:269.710 - 0.773ms returns 0 (0x00000000)
T4030 000:269.734 JLINK_WriteU32(0xE000EDFC, 0x01000000)
T4030 000:269.743   Debug reg: DEMCR
T4030 000:269.756   CPU_WriteMem(4 bytes @ 0xE000EDFC)
T4030 000:270.073 - 0.338ms returns 0 (0x00000000)
T4030 000:288.239 JLINK_GetHWStatus(...)
T4030 000:288.546 - 0.311ms returns 0
T4030 000:297.948 JLINK_GetNumBPUnits(Type = 0xFFFFFF00)
T4030 000:297.969 - 0.020ms returns 0x03
T4030 000:297.974 JLINK_GetNumBPUnits(Type = 0xF0)
T4030 000:297.979 - 0.004ms returns 0x2000
T4030 000:297.983 JLINK_GetNumWPUnits()
T4030 000:297.987 - 0.003ms returns 1
T4030 000:304.710 JLINK_GetSpeed()
T4030 000:304.734 - 0.023ms returns 6000
T4030 000:312.663 JLINK_ReadMemU32(0xE000E004, 0x1 Items)
T4030 000:312.692   CPU_ReadMem(4 bytes @ 0xE000E004)
T4030 000:313.082   Data:  00 00 00 00
T4030 000:313.098 - 0.435ms returns 1 (0x1)
T4030 000:313.131 JLINK_Halt()
T4030 000:313.136 - 0.004ms returns 0x00
T4030 000:313.141 JLINK_IsHalted()
T4030 000:313.146 - 0.004ms returns TRUE
T4030 000:315.629 JLINK_WriteMem(0x20000000, 0x224 Bytes, ...)
T4030 000:315.638   Data:  00 BE 0A E0 0D 78 2D 06 68 40 08 24 40 00 00 D3 ...
T4030 000:315.855   CPU_WriteMem(548 bytes @ 0x20000000)
T4030 000:318.036 - 2.406ms returns 0x224
T4030 000:318.154 JLINK_HasError()
T4030 000:318.178 JLINK_WriteReg(R0, 0x08000000)
T4030 000:318.188 - 0.020ms returns 0
T4030 000:318.198 JLINK_WriteReg(R1, 0x00B71B00)
T4030 000:318.205 - 0.007ms returns 0
T4030 000:318.214 JLINK_WriteReg(R2, 0x00000001)
T4030 000:318.222 - 0.007ms returns 0
T4030 000:318.230 JLINK_WriteReg(R3, 0x00000000)
T4030 000:318.238 - 0.007ms returns 0
T4030 000:318.247 JLINK_WriteReg(R4, 0x00000000)
T4030 000:318.254 - 0.007ms returns 0
T4030 000:318.263 JLINK_WriteReg(R5, 0x00000000)
T4030 000:318.271 - 0.007ms returns 0
T4030 000:318.279 JLINK_WriteReg(R6, 0x00000000)
T4030 000:318.287 - 0.007ms returns 0
T4030 000:318.296 JLINK_WriteReg(R7, 0x00000000)
T4030 000:318.303 - 0.007ms returns 0
T4030 000:318.312 JLINK_WriteReg(R8, 0x00000000)
T4030 000:318.319 - 0.007ms returns 0
T4030 000:318.328 JLINK_WriteReg(R9, 0x20000220)
T4030 000:318.335 - 0.007ms returns 0
T4030 000:318.344 JLINK_WriteReg(R10, 0x00000000)
T4030 000:318.351 - 0.007ms returns 0
T4030 000:318.360 JLINK_WriteReg(R11, 0x00000000)
T4030 000:318.367 - 0.007ms returns 0
T4030 000:318.376 JLINK_WriteReg(R12, 0x00000000)
T4030 000:318.383 - 0.007ms returns 0
T4030 000:318.391 JLINK_WriteReg(R13 (SP), 0x20000800)
T4030 000:318.399 - 0.008ms returns 0
T4030 000:318.408 JLINK_WriteReg(R14, 0x20000001)
T4030 000:318.416 - 0.007ms returns 0
T4030 000:318.428 JLINK_WriteReg(R15 (PC), 0x2000002C)
T4030 000:318.435 - 0.011ms returns 0
T4030 000:318.444 JLINK_WriteReg(XPSR, 0x01000000)
T4030 000:318.452 - 0.007ms returns 0
T4030 000:318.460 JLINK_WriteReg(MSP, 0x20000800)
T4030 000:318.467 - 0.007ms returns 0
T4030 000:318.476 JLINK_WriteReg(PSP, 0x20000800)
T4030 000:318.483 - 0.007ms returns 0
T4030 000:318.500 JLINK_WriteReg(CFBP, 0x00000000)
T4030 000:318.507 - 0.007ms returns 0
T4030 000:318.517 JLINK_SetBPEx(Addr = 0x20000000, Type = 0xFFFFFFF2)
T4030 000:318.532   CPU_ReadMem(4 bytes @ 0x20000000)
T4030 000:318.949   CPU_WriteMem(4 bytes @ 0x20000000)
T4030 000:319.281   CPU_ReadMem(4 bytes @ 0x20000000)
T4030 000:319.595   CPU_WriteMem(4 bytes @ 0x20000000)
T4030 000:319.946   CPU_ReadMem(2 bytes @ 0x20000000)
T4030 000:320.225 - 1.708ms returns 0x00000001
T4030 000:320.267 JLINK_Go()
T4030 000:320.278   CPU_WriteMem(2 bytes @ 0x20000000)
T4030 000:320.580   CPU_ReadMem(4 bytes @ 0xE0001000)
T4030 000:320.960   CPU_WriteMem(4 bytes @ 0xE0001000)
T4030 000:321.367   CPU_WriteMem(4 bytes @ 0xE0002008)
T4030 000:321.402   CPU_WriteMem(4 bytes @ 0xE000200C)
T4030 000:321.415   CPU_WriteMem(4 bytes @ 0xE0002010)
T4030 000:322.079   CPU_WriteMem(4 bytes @ 0xE0001004)
T4030 000:329.948   Memory map 'after startup completion point' is active
T4030 000:329.983 - 9.715ms 
T4030 000:330.041 JLINK_IsHalted()
T4030 000:331.926   CPU_ReadMem(2 bytes @ 0x20000000)
T4030 000:332.189 - 2.147ms returns TRUE
T4030 000:332.218 JLINK_ReadReg(R15 (PC))
T4030 000:332.228 - 0.009ms returns 0x20000000
T4030 000:332.240 JLINK_ClrBPEx(BPHandle = 0x00000001)
T4030 000:332.248 - 0.007ms returns 0x00
T4030 000:332.259 JLINK_ReadReg(R0)
T4030 000:332.267 - 0.007ms returns 0x00000000
T4030 000:332.966 JLINK_HasError()
T4030 000:332.989 JLINK_WriteReg(R0, 0x08000000)
T4030 000:332.998 - 0.009ms returns 0
T4030 000:333.007 JLINK_WriteReg(R1, 0x00B71B00)
T4030 000:333.014 - 0.007ms returns 0
T4030 000:333.023 JLINK_WriteReg(R2, 0x00000001)
T4030 000:333.030 - 0.007ms returns 0
T4030 000:333.038 JLINK_WriteReg(R3, 0x00000000)
T4030 000:333.045 - 0.007ms returns 0
T4030 000:333.054 JLINK_WriteReg(R4, 0x00000000)
T4030 000:333.061 - 0.007ms returns 0
T4030 000:333.069 JLINK_WriteReg(R5, 0x00000000)
T4030 000:333.076 - 0.007ms returns 0
T4030 000:333.085 JLINK_WriteReg(R6, 0x00000000)
T4030 000:333.092 - 0.007ms returns 0
T4030 000:333.100 JLINK_WriteReg(R7, 0x00000000)
T4030 000:333.107 - 0.007ms returns 0
T4030 000:333.116 JLINK_WriteReg(R8, 0x00000000)
T4030 000:333.123 - 0.007ms returns 0
T4030 000:333.132 JLINK_WriteReg(R9, 0x20000220)
T4030 000:333.139 - 0.007ms returns 0
T4030 000:333.147 JLINK_WriteReg(R10, 0x00000000)
T4030 000:333.155 - 0.007ms returns 0
T4030 000:333.163 JLINK_WriteReg(R11, 0x00000000)
T4030 000:333.170 - 0.007ms returns 0
T4030 000:333.178 JLINK_WriteReg(R12, 0x00000000)
T4030 000:333.185 - 0.007ms returns 0
T4030 000:333.194 JLINK_WriteReg(R13 (SP), 0x20000800)
T4030 000:333.201 - 0.007ms returns 0
T4030 000:333.210 JLINK_WriteReg(R14, 0x20000001)
T4030 000:333.217 - 0.007ms returns 0
T4030 000:333.226 JLINK_WriteReg(R15 (PC), 0x20000152)
T4030 000:333.233 - 0.007ms returns 0
T4030 000:333.241 JLINK_WriteReg(XPSR, 0x01000000)
T4030 000:333.249 - 0.007ms returns 0
T4030 000:333.257 JLINK_WriteReg(MSP, 0x20000800)
T4030 000:333.264 - 0.007ms returns 0
T4030 000:333.273 JLINK_WriteReg(PSP, 0x20000800)
T4030 000:333.280 - 0.007ms returns 0
T4030 000:333.289 JLINK_WriteReg(CFBP, 0x00000000)
T4030 000:333.296 - 0.007ms returns 0
T4030 000:333.305 JLINK_SetBPEx(Addr = 0x20000000, Type = 0xFFFFFFF2)
T4030 000:333.314 - 0.009ms returns 0x00000002
T4030 000:333.322 JLINK_Go()
T4030 000:333.337   CPU_ReadMem(4 bytes @ 0xE0001000)
T4030 000:335.552 - 2.229ms 
T4030 000:335.599 JLINK_IsHalted()
T4030 000:335.883 - 0.283ms returns FALSE
T4030 000:335.935 JLINK_HasError()
T4030 000:349.745 JLINK_IsHalted()
T4030 000:350.166 - 0.420ms returns FALSE
T4030 000:350.204 JLINK_HasError()
T4030 000:352.715 JLINK_IsHalted()
T4030 000:353.095 - 0.379ms returns FALSE
T4030 000:353.150 JLINK_HasError()
T4030 000:354.707 JLINK_IsHalted()
T4030 000:355.030 - 0.322ms returns FALSE
T4030 000:355.055 JLINK_HasError()
T4030 000:357.009 JLINK_IsHalted()
T4030 000:357.316 - 0.307ms returns FALSE
T4030 000:357.342 JLINK_HasError()
T4030 000:359.163 JLINK_IsHalted()
T4030 000:359.564 - 0.400ms returns FALSE
T4030 000:359.593 JLINK_HasError()
T4030 000:363.163 JLINK_IsHalted()
T4030 000:363.484 - 0.321ms returns FALSE
T4030 000:363.510 JLINK_HasError()
T4030 000:365.163 JLINK_IsHalted()
T4030 000:365.519 - 0.354ms returns FALSE
T4030 000:365.593 JLINK_HasError()
T4030 000:367.165 JLINK_IsHalted()
T4030 000:367.464 - 0.299ms returns FALSE
T4030 000:367.480 JLINK_HasError()
T4030 000:373.189 JLINK_IsHalted()
T4030 000:375.308   CPU_ReadMem(2 bytes @ 0x20000000)
T4030 000:375.636 - 2.446ms returns TRUE
T4030 000:375.701 JLINK_ReadReg(R15 (PC))
T4030 000:375.713 - 0.012ms returns 0x20000000
T4030 000:375.724 JLINK_ClrBPEx(BPHandle = 0x00000002)
T4030 000:375.734 - 0.009ms returns 0x00
T4030 000:375.755 JLINK_ReadReg(R0)
T4030 000:375.764 - 0.008ms returns 0x00000000
T4030 000:428.234 JLINK_HasError()
T4030 000:428.271 JLINK_WriteReg(R0, 0x00000001)
T4030 000:428.282 - 0.012ms returns 0
T4030 000:428.291 JLINK_WriteReg(R1, 0x00B71B00)
T4030 000:428.299 - 0.007ms returns 0
T4030 000:428.308 JLINK_WriteReg(R2, 0x00000001)
T4030 000:428.315 - 0.007ms returns 0
T4030 000:428.324 JLINK_WriteReg(R3, 0x00000000)
T4030 000:428.331 - 0.007ms returns 0
T4030 000:428.339 JLINK_WriteReg(R4, 0x00000000)
T4030 000:428.346 - 0.007ms returns 0
T4030 000:428.355 JLINK_WriteReg(R5, 0x00000000)
T4030 000:428.362 - 0.007ms returns 0
T4030 000:428.370 JLINK_WriteReg(R6, 0x00000000)
T4030 000:428.377 - 0.007ms returns 0
T4030 000:428.386 JLINK_WriteReg(R7, 0x00000000)
T4030 000:428.393 - 0.007ms returns 0
T4030 000:428.401 JLINK_WriteReg(R8, 0x00000000)
T4030 000:428.406 - 0.005ms returns 0
T4030 000:428.414 JLINK_WriteReg(R9, 0x20000220)
T4030 000:428.420 - 0.006ms returns 0
T4030 000:428.424 JLINK_WriteReg(R10, 0x00000000)
T4030 000:428.428 - 0.003ms returns 0
T4030 000:428.433 JLINK_WriteReg(R11, 0x00000000)
T4030 000:428.436 - 0.003ms returns 0
T4030 000:428.441 JLINK_WriteReg(R12, 0x00000000)
T4030 000:428.444 - 0.003ms returns 0
T4030 000:428.449 JLINK_WriteReg(R13 (SP), 0x20000800)
T4030 000:428.454 - 0.004ms returns 0
T4030 000:428.458 JLINK_WriteReg(R14, 0x20000001)
T4030 000:428.462 - 0.003ms returns 0
T4030 000:428.467 JLINK_WriteReg(R15 (PC), 0x2000005E)
T4030 000:428.470 - 0.003ms returns 0
T4030 000:428.475 JLINK_WriteReg(XPSR, 0x01000000)
T4030 000:428.479 - 0.003ms returns 0
T4030 000:428.483 JLINK_WriteReg(MSP, 0x20000800)
T4030 000:428.487 - 0.003ms returns 0
T4030 000:428.491 JLINK_WriteReg(PSP, 0x20000800)
T4030 000:428.495 - 0.003ms returns 0
T4030 000:428.499 JLINK_WriteReg(CFBP, 0x00000000)
T4030 000:428.503 - 0.003ms returns 0
T4030 000:428.508 JLINK_SetBPEx(Addr = 0x20000000, Type = 0xFFFFFFF2)
T4030 000:428.513 - 0.005ms returns 0x00000003
T4030 000:428.518 JLINK_Go()
T4030 000:428.532   CPU_ReadMem(4 bytes @ 0xE0001000)
T4030 000:430.719 - 2.200ms 
T4030 000:430.776 JLINK_IsHalted()
T4030 000:433.193   CPU_ReadMem(2 bytes @ 0x20000000)
T4030 000:434.054 - 3.275ms returns TRUE
T4030 000:434.228 JLINK_ReadReg(R15 (PC))
T4030 000:434.273 - 0.043ms returns 0x20000000
T4030 000:434.332 JLINK_ClrBPEx(BPHandle = 0x00000003)
T4030 000:434.370 - 0.038ms returns 0x00
T4030 000:434.425 JLINK_ReadReg(R0)
T4030 000:434.461 - 0.035ms returns 0x00000000
T4030 000:440.739 JLINK_WriteMem(0x20000000, 0x224 Bytes, ...)
T4030 000:440.755   Data:  00 BE 0A E0 0D 78 2D 06 68 40 08 24 40 00 00 D3 ...
T4030 000:440.784   CPU_WriteMem(548 bytes @ 0x20000000)
T4030 000:443.038 - 2.298ms returns 0x224
T4030 000:443.162 JLINK_HasError()
T4030 000:443.171 JLINK_WriteReg(R0, 0x08000000)
T4030 000:443.179 - 0.008ms returns 0
T4030 000:443.185 JLINK_WriteReg(R1, 0x00B71B00)
T4030 000:443.190 - 0.004ms returns 0
T4030 000:443.195 JLINK_WriteReg(R2, 0x00000002)
T4030 000:443.200 - 0.004ms returns 0
T4030 000:443.205 JLINK_WriteReg(R3, 0x00000000)
T4030 000:443.210 - 0.004ms returns 0
T4030 000:443.215 JLINK_WriteReg(R4, 0x00000000)
T4030 000:443.219 - 0.004ms returns 0
T4030 000:443.224 JLINK_WriteReg(R5, 0x00000000)
T4030 000:443.237 - 0.012ms returns 0
T4030 000:443.244 JLINK_WriteReg(R6, 0x00000000)
T4030 000:443.249 - 0.004ms returns 0
T4030 000:443.254 JLINK_WriteReg(R7, 0x00000000)
T4030 000:443.258 - 0.004ms returns 0
T4030 000:443.264 JLINK_WriteReg(R8, 0x00000000)
T4030 000:443.268 - 0.004ms returns 0
T4030 000:443.273 JLINK_WriteReg(R9, 0x20000220)
T4030 000:443.278 - 0.004ms returns 0
T4030 000:443.283 JLINK_WriteReg(R10, 0x00000000)
T4030 000:443.287 - 0.004ms returns 0
T4030 000:443.293 JLINK_WriteReg(R11, 0x00000000)
T4030 000:443.298 - 0.004ms returns 0
T4030 000:443.303 JLINK_WriteReg(R12, 0x00000000)
T4030 000:443.308 - 0.004ms returns 0
T4030 000:443.313 JLINK_WriteReg(R13 (SP), 0x20000800)
T4030 000:443.318 - 0.005ms returns 0
T4030 000:443.324 JLINK_WriteReg(R14, 0x20000001)
T4030 000:443.328 - 0.004ms returns 0
T4030 000:443.333 JLINK_WriteReg(R15 (PC), 0x2000002C)
T4030 000:443.337 - 0.004ms returns 0
T4030 000:443.343 JLINK_WriteReg(XPSR, 0x01000000)
T4030 000:443.347 - 0.004ms returns 0
T4030 000:443.352 JLINK_WriteReg(MSP, 0x20000800)
T4030 000:443.356 - 0.004ms returns 0
T4030 000:443.367 JLINK_WriteReg(PSP, 0x20000800)
T4030 000:443.373 - 0.006ms returns 0
T4030 000:443.380 JLINK_WriteReg(CFBP, 0x00000000)
T4030 000:443.386 - 0.006ms returns 0
T4030 000:443.393 JLINK_SetBPEx(Addr = 0x20000000, Type = 0xFFFFFFF2)
T4030 000:443.405   CPU_ReadMem(4 bytes @ 0x20000000)
T4030 000:443.760   CPU_WriteMem(4 bytes @ 0x20000000)
T4030 000:444.112   CPU_ReadMem(4 bytes @ 0x20000000)
T4030 000:444.423   CPU_WriteMem(4 bytes @ 0x20000000)
T4030 000:444.771   CPU_ReadMem(2 bytes @ 0x20000000)
T4030 000:445.124 - 1.731ms returns 0x00000004
T4030 000:445.155 JLINK_Go()
T4030 000:445.162   CPU_WriteMem(2 bytes @ 0x20000000)
T4030 000:445.474   CPU_ReadMem(4 bytes @ 0xE0001000)
T4030 000:447.653 - 2.497ms 
T4030 000:447.726 JLINK_IsHalted()
T4030 000:449.680   CPU_ReadMem(2 bytes @ 0x20000000)
T4030 000:450.019 - 2.292ms returns TRUE
T4030 000:450.044 JLINK_ReadReg(R15 (PC))
T4030 000:450.053 - 0.009ms returns 0x20000000
T4030 000:450.062 JLINK_ClrBPEx(BPHandle = 0x00000004)
T4030 000:450.070 - 0.007ms returns 0x00
T4030 000:450.079 JLINK_ReadReg(R0)
T4030 000:450.086 - 0.007ms returns 0x00000000
T4030 000:450.637 JLINK_WriteMem(0x20000224, 0x1DC Bytes, ...)
T4030 000:450.656   Data:  60 02 00 20 D9 00 00 08 1D 13 00 08 99 0E 00 08 ...
T4030 000:450.680   CPU_WriteMem(476 bytes @ 0x20000224)
T4030 000:452.598 - 1.960ms returns 0x1DC
T4030 000:452.652 JLINK_WriteMem(0x20000400, 0x224 Bytes, ...)
T4030 000:452.662   Data:  03 E0 42 68 52 08 52 00 42 60 70 47 01 46 08 68 ...
T4030 000:452.680   CPU_WriteMem(548 bytes @ 0x20000400)
T4030 000:454.972 - 2.320ms returns 0x224
T4030 000:455.015 JLINK_HasError()
T4030 000:455.022 JLINK_WriteReg(R0, 0x08000000)
T4030 000:455.027 - 0.005ms returns 0
T4030 000:455.033 JLINK_WriteReg(R1, 0x00000400)
T4030 000:455.037 - 0.003ms returns 0
T4030 000:455.041 JLINK_WriteReg(R2, 0x20000224)
T4030 000:455.045 - 0.003ms returns 0
T4030 000:455.049 JLINK_WriteReg(R3, 0x00000000)
T4030 000:455.053 - 0.003ms returns 0
T4030 000:455.058 JLINK_WriteReg(R4, 0x00000000)
T4030 000:455.062 - 0.003ms returns 0
T4030 000:455.066 JLINK_WriteReg(R5, 0x00000000)
T4030 000:455.070 - 0.004ms returns 0
T4030 000:455.075 JLINK_WriteReg(R6, 0x00000000)
T4030 000:455.078 - 0.003ms returns 0
T4030 000:455.083 JLINK_WriteReg(R7, 0x00000000)
T4030 000:455.087 - 0.003ms returns 0
T4030 000:455.091 JLINK_WriteReg(R8, 0x00000000)
T4030 000:455.095 - 0.003ms returns 0
T4030 000:455.099 JLINK_WriteReg(R9, 0x20000220)
T4030 000:455.103 - 0.003ms returns 0
T4030 000:455.107 JLINK_WriteReg(R10, 0x00000000)
T4030 000:455.111 - 0.003ms returns 0
T4030 000:455.116 JLINK_WriteReg(R11, 0x00000000)
T4030 000:455.120 - 0.003ms returns 0
T4030 000:455.125 JLINK_WriteReg(R12, 0x00000000)
T4030 000:455.129 - 0.003ms returns 0
T4030 000:455.133 JLINK_WriteReg(R13 (SP), 0x20000800)
T4030 000:455.137 - 0.004ms returns 0
T4030 000:455.142 JLINK_WriteReg(R14, 0x20000001)
T4030 000:455.153 - 0.010ms returns 0
T4030 000:455.157 JLINK_WriteReg(R15 (PC), 0x200001A6)
T4030 000:455.161 - 0.004ms returns 0
T4030 000:455.166 JLINK_WriteReg(XPSR, 0x01000000)
T4030 000:455.170 - 0.004ms returns 0
T4030 000:455.174 JLINK_WriteReg(MSP, 0x20000800)
T4030 000:455.178 - 0.004ms returns 0
T4030 000:455.183 JLINK_WriteReg(PSP, 0x20000800)
T4030 000:455.187 - 0.003ms returns 0
T4030 000:455.191 JLINK_WriteReg(CFBP, 0x00000000)
T4030 000:455.196 - 0.004ms returns 0
T4030 000:455.201 JLINK_SetBPEx(Addr = 0x20000000, Type = 0xFFFFFFF2)
T4030 000:455.205 - 0.005ms returns 0x00000005
T4030 000:455.210 JLINK_Go()
T4030 000:455.219   CPU_ReadMem(4 bytes @ 0xE0001000)
T4030 000:457.339 - 2.128ms 
T4030 000:457.364 JLINK_IsHalted()
T4030 000:457.643 - 0.278ms returns FALSE
T4030 000:457.665 JLINK_HasError()
T4030 000:463.328 JLINK_IsHalted()
T4030 000:463.743 - 0.414ms returns FALSE
T4030 000:463.775 JLINK_HasError()
T4030 000:467.332 JLINK_IsHalted()
T4030 000:467.734 - 0.402ms returns FALSE
T4030 000:467.773 JLINK_HasError()
T4030 000:469.329 JLINK_IsHalted()
T4030 000:469.681 - 0.351ms returns FALSE
T4030 000:469.732 JLINK_HasError()
T4030 000:471.331 JLINK_IsHalted()
T4030 000:471.707 - 0.376ms returns FALSE
T4030 000:471.733 JLINK_HasError()
T4030 000:474.330 JLINK_IsHalted()
T4030 000:474.670 - 0.339ms returns FALSE
T4030 000:474.696 JLINK_HasError()
T4030 000:476.646 JLINK_IsHalted()
T4030 000:476.920 - 0.274ms returns FALSE
T4030 000:476.942 JLINK_HasError()
T4030 000:478.658 JLINK_IsHalted()
T4030 000:479.128 - 0.470ms returns FALSE
T4030 000:479.179 JLINK_HasError()
T4030 000:483.117 JLINK_IsHalted()
T4030 000:485.077   CPU_ReadMem(2 bytes @ 0x20000000)
T4030 000:485.358 - 2.240ms returns TRUE
T4030 000:485.400 JLINK_ReadReg(R15 (PC))
T4030 000:485.410 - 0.011ms returns 0x20000000
T4030 000:485.424 JLINK_ClrBPEx(BPHandle = 0x00000005)
T4030 000:485.432 - 0.009ms returns 0x00
T4030 000:485.446 JLINK_ReadReg(R0)
T4030 000:485.454 - 0.008ms returns 0x00000000
T4030 000:486.633 JLINK_WriteMem(0x20000224, 0x1DC Bytes, ...)
T4030 000:486.658   Data:  F7 FE 00 28 05 D0 0D 48 FF F7 EE FE 20 80 01 27 ...
T4030 000:486.680   CPU_WriteMem(476 bytes @ 0x20000224)
T4030 000:488.734 - 2.100ms returns 0x1DC
T4030 000:488.801 JLINK_WriteMem(0x20000400, 0x224 Bytes, ...)
T4030 000:488.810   Data:  10 B5 00 F0 B5 F9 00 F0 E7 FA 00 F0 BB FC 04 46 ...
T4030 000:488.827   CPU_WriteMem(548 bytes @ 0x20000400)
T4030 000:490.933 - 2.131ms returns 0x224
T4030 000:490.989 JLINK_HasError()
T4030 000:491.002 JLINK_WriteReg(R0, 0x08000400)
T4030 000:491.012 - 0.010ms returns 0
T4030 000:491.022 JLINK_WriteReg(R1, 0x00000400)
T4030 000:491.030 - 0.008ms returns 0
T4030 000:491.040 JLINK_WriteReg(R2, 0x20000224)
T4030 000:491.048 - 0.008ms returns 0
T4030 000:491.057 JLINK_WriteReg(R3, 0x00000000)
T4030 000:491.065 - 0.008ms returns 0
T4030 000:491.075 JLINK_WriteReg(R4, 0x00000000)
T4030 000:491.084 - 0.008ms returns 0
T4030 000:491.093 JLINK_WriteReg(R5, 0x00000000)
T4030 000:491.101 - 0.007ms returns 0
T4030 000:491.109 JLINK_WriteReg(R6, 0x00000000)
T4030 000:491.117 - 0.008ms returns 0
T4030 000:491.127 JLINK_WriteReg(R7, 0x00000000)
T4030 000:491.135 - 0.008ms returns 0
T4030 000:491.144 JLINK_WriteReg(R8, 0x00000000)
T4030 000:491.152 - 0.008ms returns 0
T4030 000:491.161 JLINK_WriteReg(R9, 0x20000220)
T4030 000:491.169 - 0.007ms returns 0
T4030 000:491.178 JLINK_WriteReg(R10, 0x00000000)
T4030 000:491.186 - 0.008ms returns 0
T4030 000:491.195 JLINK_WriteReg(R11, 0x00000000)
T4030 000:491.203 - 0.007ms returns 0
T4030 000:491.212 JLINK_WriteReg(R12, 0x00000000)
T4030 000:491.220 - 0.008ms returns 0
T4030 000:491.230 JLINK_WriteReg(R13 (SP), 0x20000800)
T4030 000:491.239 - 0.009ms returns 0
T4030 000:491.248 JLINK_WriteReg(R14, 0x20000001)
T4030 000:491.256 - 0.008ms returns 0
T4030 000:491.265 JLINK_WriteReg(R15 (PC), 0x200001A6)
T4030 000:491.273 - 0.008ms returns 0
T4030 000:491.282 JLINK_WriteReg(XPSR, 0x01000000)
T4030 000:491.300 - 0.017ms returns 0
T4030 000:491.313 JLINK_WriteReg(MSP, 0x20000800)
T4030 000:491.321 - 0.007ms returns 0
T4030 000:491.329 JLINK_WriteReg(PSP, 0x20000800)
T4030 000:491.337 - 0.008ms returns 0
T4030 000:491.346 JLINK_WriteReg(CFBP, 0x00000000)
T4030 000:491.354 - 0.007ms returns 0
T4030 000:491.418 JLINK_SetBPEx(Addr = 0x20000000, Type = 0xFFFFFFF2)
T4030 000:491.428 - 0.010ms returns 0x00000006
T4030 000:491.437 JLINK_Go()
T4030 000:491.453   CPU_ReadMem(4 bytes @ 0xE0001000)
T4030 000:493.643 - 2.205ms 
T4030 000:493.710 JLINK_IsHalted()
T4030 000:494.111 - 0.399ms returns FALSE
T4030 000:494.163 JLINK_HasError()
T4030 000:499.336 JLINK_IsHalted()
T4030 000:499.727 - 0.390ms returns FALSE
T4030 000:499.753 JLINK_HasError()
T4030 000:501.366 JLINK_IsHalted()
T4030 000:501.703 - 0.337ms returns FALSE
T4030 000:501.750 JLINK_HasError()
T4030 000:503.330 JLINK_IsHalted()
T4030 000:503.700 - 0.370ms returns FALSE
T4030 000:503.743 JLINK_HasError()
T4030 000:506.336 JLINK_IsHalted()
T4030 000:506.751 - 0.415ms returns FALSE
T4030 000:506.779 JLINK_HasError()
T4030 000:508.335 JLINK_IsHalted()
T4030 000:508.680 - 0.345ms returns FALSE
T4030 000:508.706 JLINK_HasError()
T4030 000:510.377 JLINK_IsHalted()
T4030 000:513.489 - 3.110ms returns FALSE
T4030 000:513.592 JLINK_HasError()
T4030 000:517.337 JLINK_IsHalted()
T4030 000:519.372   CPU_ReadMem(2 bytes @ 0x20000000)
T4030 000:519.672 - 2.335ms returns TRUE
T4030 000:519.697 JLINK_ReadReg(R15 (PC))
T4030 000:519.707 - 0.010ms returns 0x20000000
T4030 000:519.717 JLINK_ClrBPEx(BPHandle = 0x00000006)
T4030 000:519.724 - 0.008ms returns 0x00
T4030 000:519.734 JLINK_ReadReg(R0)
T4030 000:519.741 - 0.007ms returns 0x00000000
T4030 000:520.495 JLINK_WriteMem(0x20000224, 0x1DC Bytes, ...)
T4030 000:520.513   Data:  0B 49 08 70 FF 20 2D 30 0A 49 08 80 00 F0 4C F8 ...
T4030 000:520.534   CPU_WriteMem(476 bytes @ 0x20000224)
T4030 000:522.499 - 2.004ms returns 0x1DC
T4030 000:522.553 JLINK_WriteMem(0x20000400, 0x224 Bytes, ...)
T4030 000:522.563   Data:  00 E0 00 22 10 46 0C 4B FF 22 2D 32 00 F0 16 F8 ...
T4030 000:522.581   CPU_WriteMem(548 bytes @ 0x20000400)
T4030 000:524.873 - 2.320ms returns 0x224
T4030 000:524.917 JLINK_HasError()
T4030 000:524.925 JLINK_WriteReg(R0, 0x08000800)
T4030 000:524.931 - 0.006ms returns 0
T4030 000:524.936 JLINK_WriteReg(R1, 0x00000400)
T4030 000:524.941 - 0.005ms returns 0
T4030 000:524.946 JLINK_WriteReg(R2, 0x20000224)
T4030 000:524.951 - 0.004ms returns 0
T4030 000:524.956 JLINK_WriteReg(R3, 0x00000000)
T4030 000:524.961 - 0.004ms returns 0
T4030 000:524.966 JLINK_WriteReg(R4, 0x00000000)
T4030 000:524.971 - 0.004ms returns 0
T4030 000:524.976 JLINK_WriteReg(R5, 0x00000000)
T4030 000:524.980 - 0.004ms returns 0
T4030 000:524.985 JLINK_WriteReg(R6, 0x00000000)
T4030 000:524.990 - 0.004ms returns 0
T4030 000:524.995 JLINK_WriteReg(R7, 0x00000000)
T4030 000:524.999 - 0.004ms returns 0
T4030 000:525.004 JLINK_WriteReg(R8, 0x00000000)
T4030 000:525.008 - 0.004ms returns 0
T4030 000:525.014 JLINK_WriteReg(R9, 0x20000220)
T4030 000:525.018 - 0.004ms returns 0
T4030 000:525.023 JLINK_WriteReg(R10, 0x00000000)
T4030 000:525.027 - 0.004ms returns 0
T4030 000:525.033 JLINK_WriteReg(R11, 0x00000000)
T4030 000:525.037 - 0.004ms returns 0
T4030 000:525.042 JLINK_WriteReg(R12, 0x00000000)
T4030 000:525.047 - 0.004ms returns 0
T4030 000:525.052 JLINK_WriteReg(R13 (SP), 0x20000800)
T4030 000:525.058 - 0.005ms returns 0
T4030 000:525.063 JLINK_WriteReg(R14, 0x20000001)
T4030 000:525.067 - 0.004ms returns 0
T4030 000:525.072 JLINK_WriteReg(R15 (PC), 0x200001A6)
T4030 000:525.077 - 0.005ms returns 0
T4030 000:525.082 JLINK_WriteReg(XPSR, 0x01000000)
T4030 000:525.087 - 0.004ms returns 0
T4030 000:525.092 JLINK_WriteReg(MSP, 0x20000800)
T4030 000:525.096 - 0.004ms returns 0
T4030 000:525.102 JLINK_WriteReg(PSP, 0x20000800)
T4030 000:525.106 - 0.004ms returns 0
T4030 000:525.111 JLINK_WriteReg(CFBP, 0x00000000)
T4030 000:525.116 - 0.005ms returns 0
T4030 000:525.190 JLINK_SetBPEx(Addr = 0x20000000, Type = 0xFFFFFFF2)
T4030 000:525.201 - 0.011ms returns 0x00000007
T4030 000:525.207 JLINK_Go()
T4030 000:525.217   CPU_ReadMem(4 bytes @ 0xE0001000)
T4030 000:527.458 - 2.250ms 
T4030 000:527.516 JLINK_IsHalted()
T4030 000:527.919 - 0.402ms returns FALSE
T4030 000:527.989 JLINK_HasError()
T4030 000:531.350 JLINK_IsHalted()
T4030 000:531.726 - 0.376ms returns FALSE
T4030 000:531.742 JLINK_HasError()
T4030 000:533.343 JLINK_IsHalted()
T4030 000:533.657 - 0.313ms returns FALSE
T4030 000:533.679 JLINK_HasError()
T4030 000:535.346 JLINK_IsHalted()
T4030 000:535.674 - 0.328ms returns FALSE
T4030 000:535.689 JLINK_HasError()
T4030 000:538.352 JLINK_IsHalted()
T4030 000:538.717 - 0.364ms returns FALSE
T4030 000:538.753 JLINK_HasError()
T4030 000:540.678 JLINK_IsHalted()
T4030 000:541.111 - 0.431ms returns FALSE
T4030 000:541.179 JLINK_HasError()
T4030 000:542.676 JLINK_IsHalted()
T4030 000:543.059 - 0.383ms returns FALSE
T4030 000:543.076 JLINK_HasError()
T4030 000:546.050 JLINK_IsHalted()
T4030 000:546.360 - 0.309ms returns FALSE
T4030 000:546.389 JLINK_HasError()
T4030 000:548.044 JLINK_IsHalted()
T4030 000:548.332 - 0.287ms returns FALSE
T4030 000:548.355 JLINK_HasError()
T4030 000:550.058 JLINK_IsHalted()
T4030 000:550.408 - 0.349ms returns FALSE
T4030 000:550.434 JLINK_HasError()
T4030 000:554.054 JLINK_IsHalted()
T4030 000:555.979   CPU_ReadMem(2 bytes @ 0x20000000)
T4030 000:556.377 - 2.322ms returns TRUE
T4030 000:556.412 JLINK_ReadReg(R15 (PC))
T4030 000:556.422 - 0.010ms returns 0x20000000
T4030 000:556.432 JLINK_ClrBPEx(BPHandle = 0x00000007)
T4030 000:556.442 - 0.009ms returns 0x00
T4030 000:556.452 JLINK_ReadReg(R0)
T4030 000:556.461 - 0.009ms returns 0x00000000
T4030 000:557.618 JLINK_WriteMem(0x20000224, 0x1DC Bytes, ...)
T4030 000:557.641   Data:  08 80 1A 48 00 88 64 28 21 D3 02 20 16 49 08 70 ...
T4030 000:557.663   CPU_WriteMem(476 bytes @ 0x20000224)
T4030 000:559.847 - 2.228ms returns 0x1DC
T4030 000:559.917 JLINK_WriteMem(0x20000400, 0x224 Bytes, ...)
T4030 000:559.927   Data:  0F 26 9E 40 B5 43 3E 46 9E 40 35 43 25 60 45 1C ...
T4030 000:559.958   CPU_WriteMem(548 bytes @ 0x20000400)
T4030 000:562.064 - 2.147ms returns 0x224
T4030 000:562.095 JLINK_HasError()
T4030 000:562.108 JLINK_WriteReg(R0, 0x08000C00)
T4030 000:562.119 - 0.011ms returns 0
T4030 000:562.129 JLINK_WriteReg(R1, 0x00000400)
T4030 000:562.137 - 0.008ms returns 0
T4030 000:562.147 JLINK_WriteReg(R2, 0x20000224)
T4030 000:562.155 - 0.008ms returns 0
T4030 000:562.165 JLINK_WriteReg(R3, 0x00000000)
T4030 000:562.173 - 0.008ms returns 0
T4030 000:562.182 JLINK_WriteReg(R4, 0x00000000)
T4030 000:562.191 - 0.008ms returns 0
T4030 000:562.200 JLINK_WriteReg(R5, 0x00000000)
T4030 000:562.208 - 0.008ms returns 0
T4030 000:562.218 JLINK_WriteReg(R6, 0x00000000)
T4030 000:562.226 - 0.008ms returns 0
T4030 000:562.235 JLINK_WriteReg(R7, 0x00000000)
T4030 000:562.243 - 0.008ms returns 0
T4030 000:562.252 JLINK_WriteReg(R8, 0x00000000)
T4030 000:562.260 - 0.008ms returns 0
T4030 000:562.269 JLINK_WriteReg(R9, 0x20000220)
T4030 000:562.277 - 0.008ms returns 0
T4030 000:562.287 JLINK_WriteReg(R10, 0x00000000)
T4030 000:562.295 - 0.008ms returns 0
T4030 000:562.304 JLINK_WriteReg(R11, 0x00000000)
T4030 000:562.312 - 0.008ms returns 0
T4030 000:562.321 JLINK_WriteReg(R12, 0x00000000)
T4030 000:562.329 - 0.008ms returns 0
T4030 000:562.338 JLINK_WriteReg(R13 (SP), 0x20000800)
T4030 000:562.347 - 0.009ms returns 0
T4030 000:562.356 JLINK_WriteReg(R14, 0x20000001)
T4030 000:562.364 - 0.007ms returns 0
T4030 000:562.373 JLINK_WriteReg(R15 (PC), 0x200001A6)
T4030 000:562.381 - 0.008ms returns 0
T4030 000:562.390 JLINK_WriteReg(XPSR, 0x01000000)
T4030 000:562.398 - 0.007ms returns 0
T4030 000:562.407 JLINK_WriteReg(MSP, 0x20000800)
T4030 000:562.415 - 0.008ms returns 0
T4030 000:562.425 JLINK_WriteReg(PSP, 0x20000800)
T4030 000:562.432 - 0.007ms returns 0
T4030 000:562.442 JLINK_WriteReg(CFBP, 0x00000000)
T4030 000:562.450 - 0.008ms returns 0
T4030 000:562.476 JLINK_SetBPEx(Addr = 0x20000000, Type = 0xFFFFFFF2)
T4030 000:562.485 - 0.009ms returns 0x00000008
T4030 000:562.494 JLINK_Go()
T4030 000:562.511   CPU_ReadMem(4 bytes @ 0xE0001000)
T4030 000:564.609 - 2.113ms 
T4030 000:564.636 JLINK_IsHalted()
T4030 000:564.971 - 0.334ms returns FALSE
T4030 000:564.999 JLINK_HasError()
T4030 000:570.381 JLINK_IsHalted()
T4030 000:570.770 - 0.389ms returns FALSE
T4030 000:570.823 JLINK_HasError()
T4030 000:572.392 JLINK_IsHalted()
T4030 000:572.903 - 0.511ms returns FALSE
T4030 000:572.948 JLINK_HasError()
T4030 000:574.388 JLINK_IsHalted()
T4030 000:574.788 - 0.399ms returns FALSE
T4030 000:574.834 JLINK_HasError()
T4030 000:578.383 JLINK_IsHalted()
T4030 000:578.746 - 0.362ms returns FALSE
T4030 000:578.779 JLINK_HasError()
T4030 000:579.880 JLINK_IsHalted()
T4030 000:580.194 - 0.313ms returns FALSE
T4030 000:580.216 JLINK_HasError()
T4030 000:581.889 JLINK_IsHalted()
T4030 000:582.218 - 0.327ms returns FALSE
T4030 000:582.280 JLINK_HasError()
T4030 000:583.907 JLINK_IsHalted()
T4030 000:584.248 - 0.340ms returns FALSE
T4030 000:584.300 JLINK_HasError()
T4030 000:586.223 JLINK_IsHalted()
T4030 000:586.671 - 0.447ms returns FALSE
T4030 000:586.756 JLINK_HasError()
T4030 000:590.247 JLINK_IsHalted()
T4030 000:592.426   CPU_ReadMem(2 bytes @ 0x20000000)
T4030 000:592.765 - 2.518ms returns TRUE
T4030 000:592.809 JLINK_ReadReg(R15 (PC))
T4030 000:592.821 - 0.012ms returns 0x20000000
T4030 000:592.834 JLINK_ClrBPEx(BPHandle = 0x00000008)
T4030 000:592.844 - 0.009ms returns 0x00
T4030 000:592.855 JLINK_ReadReg(R0)
T4030 000:592.864 - 0.008ms returns 0x00000000
T4030 000:593.685 JLINK_WriteMem(0x20000224, 0x1DC Bytes, ...)
T4030 000:593.704   Data:  10 B5 03 49 09 20 C0 06 FF F7 3C FF 10 BD 00 00 ...
T4030 000:593.725   CPU_WriteMem(476 bytes @ 0x20000224)
T4030 000:595.630 - 1.945ms returns 0x1DC
T4030 000:595.660 JLINK_WriteMem(0x20000400, 0x224 Bytes, ...)
T4030 000:595.670   Data:  18 21 C1 75 0D A9 09 20 C0 06 FF F7 E1 FD 00 22 ...
T4030 000:595.685   CPU_WriteMem(548 bytes @ 0x20000400)
T4030 000:597.955 - 2.294ms returns 0x224
T4030 000:598.017 JLINK_HasError()
T4030 000:598.029 JLINK_WriteReg(R0, 0x08001000)
T4030 000:598.039 - 0.010ms returns 0
T4030 000:598.049 JLINK_WriteReg(R1, 0x00000400)
T4030 000:598.057 - 0.008ms returns 0
T4030 000:598.066 JLINK_WriteReg(R2, 0x20000224)
T4030 000:598.074 - 0.007ms returns 0
T4030 000:598.083 JLINK_WriteReg(R3, 0x00000000)
T4030 000:598.090 - 0.007ms returns 0
T4030 000:598.100 JLINK_WriteReg(R4, 0x00000000)
T4030 000:598.109 - 0.008ms returns 0
T4030 000:598.117 JLINK_WriteReg(R5, 0x00000000)
T4030 000:598.126 - 0.008ms returns 0
T4030 000:598.135 JLINK_WriteReg(R6, 0x00000000)
T4030 000:598.143 - 0.008ms returns 0
T4030 000:598.152 JLINK_WriteReg(R7, 0x00000000)
T4030 000:598.160 - 0.007ms returns 0
T4030 000:598.168 JLINK_WriteReg(R8, 0x00000000)
T4030 000:598.177 - 0.008ms returns 0
T4030 000:598.186 JLINK_WriteReg(R9, 0x20000220)
T4030 000:598.193 - 0.007ms returns 0
T4030 000:598.202 JLINK_WriteReg(R10, 0x00000000)
T4030 000:598.210 - 0.007ms returns 0
T4030 000:598.219 JLINK_WriteReg(R11, 0x00000000)
T4030 000:598.227 - 0.008ms returns 0
T4030 000:598.237 JLINK_WriteReg(R12, 0x00000000)
T4030 000:598.244 - 0.007ms returns 0
T4030 000:598.254 JLINK_WriteReg(R13 (SP), 0x20000800)
T4030 000:598.262 - 0.009ms returns 0
T4030 000:598.272 JLINK_WriteReg(R14, 0x20000001)
T4030 000:598.280 - 0.008ms returns 0
T4030 000:598.289 JLINK_WriteReg(R15 (PC), 0x200001A6)
T4030 000:598.297 - 0.008ms returns 0
T4030 000:598.306 JLINK_WriteReg(XPSR, 0x01000000)
T4030 000:598.314 - 0.008ms returns 0
T4030 000:598.323 JLINK_WriteReg(MSP, 0x20000800)
T4030 000:598.331 - 0.007ms returns 0
T4030 000:598.340 JLINK_WriteReg(PSP, 0x20000800)
T4030 000:598.347 - 0.007ms returns 0
T4030 000:598.357 JLINK_WriteReg(CFBP, 0x00000000)
T4030 000:598.365 - 0.008ms returns 0
T4030 000:598.375 JLINK_SetBPEx(Addr = 0x20000000, Type = 0xFFFFFFF2)
T4030 000:598.394 - 0.019ms returns 0x00000009
T4030 000:598.409 JLINK_Go()
T4030 000:598.425   CPU_ReadMem(4 bytes @ 0xE0001000)
T4030 000:600.574 - 2.164ms 
T4030 000:600.611 JLINK_IsHalted()
T4030 000:600.926 - 0.314ms returns FALSE
T4030 000:600.985 JLINK_HasError()
T4030 000:604.754 JLINK_IsHalted()
T4030 000:605.186 - 0.431ms returns FALSE
T4030 000:605.253 JLINK_HasError()
T4030 000:606.770 JLINK_IsHalted()
T4030 000:607.153 - 0.382ms returns FALSE
T4030 000:607.181 JLINK_HasError()
T4030 000:610.745 JLINK_IsHalted()
T4030 000:611.144 - 0.397ms returns FALSE
T4030 000:611.191 JLINK_HasError()
T4030 000:613.123 JLINK_IsHalted()
T4030 000:613.501 - 0.377ms returns FALSE
T4030 000:613.536 JLINK_HasError()
T4030 000:615.412 JLINK_IsHalted()
T4030 000:615.743 - 0.331ms returns FALSE
T4030 000:615.768 JLINK_HasError()
T4030 000:618.418 JLINK_IsHalted()
T4030 000:618.883 - 0.465ms returns FALSE
T4030 000:618.918 JLINK_HasError()
T4030 000:620.422 JLINK_IsHalted()
T4030 000:620.739 - 0.316ms returns FALSE
T4030 000:620.764 JLINK_HasError()
T4030 000:622.416 JLINK_IsHalted()
T4030 000:622.775 - 0.359ms returns FALSE
T4030 000:622.825 JLINK_HasError()
T4030 000:626.409 JLINK_IsHalted()
T4030 000:628.352   CPU_ReadMem(2 bytes @ 0x20000000)
T4030 000:628.620 - 2.210ms returns TRUE
T4030 000:628.644 JLINK_ReadReg(R15 (PC))
T4030 000:628.653 - 0.009ms returns 0x20000000
T4030 000:628.662 JLINK_ClrBPEx(BPHandle = 0x00000009)
T4030 000:628.670 - 0.008ms returns 0x00
T4030 000:628.680 JLINK_ReadReg(R0)
T4030 000:628.687 - 0.007ms returns 0x00000000
T4030 000:629.321 JLINK_WriteMem(0x20000224, 0x1DC Bytes, ...)
T4030 000:629.338   Data:  09 20 C0 06 FF F7 3E FD 68 46 FF F7 3D FD 06 49 ...
T4030 000:629.356   CPU_WriteMem(476 bytes @ 0x20000224)
T4030 000:631.228 - 1.907ms returns 0x1DC
T4030 000:631.255 JLINK_WriteMem(0x20000400, 0x224 Bytes, ...)
T4030 000:631.260   Data:  00 6C DC 02 58 00 00 20 00 20 02 40 04 48 00 68 ...
T4030 000:631.269   CPU_WriteMem(548 bytes @ 0x20000400)
T4030 000:633.415 - 2.159ms returns 0x224
T4030 000:633.508 JLINK_HasError()
T4030 000:633.520 JLINK_WriteReg(R0, 0x08001400)
T4030 000:633.529 - 0.009ms returns 0
T4030 000:633.539 JLINK_WriteReg(R1, 0x00000400)
T4030 000:633.546 - 0.007ms returns 0
T4030 000:633.555 JLINK_WriteReg(R2, 0x20000224)
T4030 000:633.563 - 0.007ms returns 0
T4030 000:633.572 JLINK_WriteReg(R3, 0x00000000)
T4030 000:633.579 - 0.007ms returns 0
T4030 000:633.588 JLINK_WriteReg(R4, 0x00000000)
T4030 000:633.595 - 0.007ms returns 0
T4030 000:633.604 JLINK_WriteReg(R5, 0x00000000)
T4030 000:633.612 - 0.007ms returns 0
T4030 000:633.621 JLINK_WriteReg(R6, 0x00000000)
T4030 000:633.629 - 0.008ms returns 0
T4030 000:633.639 JLINK_WriteReg(R7, 0x00000000)
T4030 000:633.647 - 0.008ms returns 0
T4030 000:633.656 JLINK_WriteReg(R8, 0x00000000)
T4030 000:633.664 - 0.008ms returns 0
T4030 000:633.673 JLINK_WriteReg(R9, 0x20000220)
T4030 000:633.681 - 0.007ms returns 0
T4030 000:633.689 JLINK_WriteReg(R10, 0x00000000)
T4030 000:633.696 - 0.007ms returns 0
T4030 000:633.705 JLINK_WriteReg(R11, 0x00000000)
T4030 000:633.712 - 0.007ms returns 0
T4030 000:633.721 JLINK_WriteReg(R12, 0x00000000)
T4030 000:633.729 - 0.008ms returns 0
T4030 000:633.738 JLINK_WriteReg(R13 (SP), 0x20000800)
T4030 000:633.746 - 0.008ms returns 0
T4030 000:633.754 JLINK_WriteReg(R14, 0x20000001)
T4030 000:633.762 - 0.007ms returns 0
T4030 000:633.770 JLINK_WriteReg(R15 (PC), 0x200001A6)
T4030 000:633.778 - 0.007ms returns 0
T4030 000:633.787 JLINK_WriteReg(XPSR, 0x01000000)
T4030 000:633.794 - 0.007ms returns 0
T4030 000:633.803 JLINK_WriteReg(MSP, 0x20000800)
T4030 000:633.810 - 0.007ms returns 0
T4030 000:633.818 JLINK_WriteReg(PSP, 0x20000800)
T4030 000:633.826 - 0.007ms returns 0
T4030 000:633.834 JLINK_WriteReg(CFBP, 0x00000000)
T4030 000:633.842 - 0.007ms returns 0
T4030 000:633.851 JLINK_SetBPEx(Addr = 0x20000000, Type = 0xFFFFFFF2)
T4030 000:633.860 - 0.009ms returns 0x0000000A
T4030 000:633.868 JLINK_Go()
T4030 000:633.884   CPU_ReadMem(4 bytes @ 0xE0001000)
T4030 000:636.100 - 2.230ms 
T4030 000:636.147 JLINK_IsHalted()
T4030 000:636.525 - 0.377ms returns FALSE
T4030 000:636.544 JLINK_HasError()
T4030 000:641.673 JLINK_IsHalted()
T4030 000:642.079 - 0.406ms returns FALSE
T4030 000:642.145 JLINK_HasError()
T4030 000:643.675 JLINK_IsHalted()
T4030 000:644.008 - 0.333ms returns FALSE
T4030 000:644.038 JLINK_HasError()
T4030 000:645.669 JLINK_IsHalted()
T4030 000:646.112 - 0.440ms returns FALSE
T4030 000:646.167 JLINK_HasError()
T4030 000:647.667 JLINK_IsHalted()
T4030 000:648.004 - 0.337ms returns FALSE
T4030 000:648.031 JLINK_HasError()
T4030 000:649.678 JLINK_IsHalted()
T4030 000:650.041 - 0.362ms returns FALSE
T4030 000:650.071 JLINK_HasError()
T4030 000:652.017 JLINK_IsHalted()
T4030 000:652.332 - 0.315ms returns FALSE
T4030 000:652.359 JLINK_HasError()
T4030 000:654.016 JLINK_IsHalted()
T4030 000:654.376 - 0.359ms returns FALSE
T4030 000:654.432 JLINK_HasError()
T4030 000:658.018 JLINK_IsHalted()
T4030 000:658.368 - 0.349ms returns FALSE
T4030 000:658.394 JLINK_HasError()
T4030 000:660.338 JLINK_IsHalted()
T4030 000:662.288   CPU_ReadMem(2 bytes @ 0x20000000)
T4030 000:662.579 - 2.240ms returns TRUE
T4030 000:662.605 JLINK_ReadReg(R15 (PC))
T4030 000:662.615 - 0.011ms returns 0x20000000
T4030 000:662.626 JLINK_ClrBPEx(BPHandle = 0x0000000A)
T4030 000:662.635 - 0.009ms returns 0x00
T4030 000:662.645 JLINK_ReadReg(R0)
T4030 000:662.653 - 0.008ms returns 0x00000000
T4030 000:663.704 JLINK_WriteMem(0x20000224, 0x1DC Bytes, ...)
T4030 000:663.716   Data:  0B 68 1B 01 70 24 23 40 1A 43 82 61 02 6A 52 08 ...
T4030 000:663.729   CPU_WriteMem(476 bytes @ 0x20000224)
T4030 000:665.650 - 1.945ms returns 0x1DC
T4030 000:665.730 JLINK_WriteMem(0x20000400, 0x224 Bytes, ...)
T4030 000:665.741   Data:  9B 00 D2 58 83 07 DC 0E FF 23 A3 40 9A 43 8B 07 ...
T4030 000:665.759   CPU_WriteMem(548 bytes @ 0x20000400)
T4030 000:667.923 - 2.192ms returns 0x224
T4030 000:667.978 JLINK_HasError()
T4030 000:667.989 JLINK_WriteReg(R0, 0x08001800)
T4030 000:667.997 - 0.008ms returns 0
T4030 000:668.003 JLINK_WriteReg(R1, 0x00000330)
T4030 000:668.009 - 0.005ms returns 0
T4030 000:668.015 JLINK_WriteReg(R2, 0x20000224)
T4030 000:668.020 - 0.005ms returns 0
T4030 000:668.026 JLINK_WriteReg(R3, 0x00000000)
T4030 000:668.032 - 0.005ms returns 0
T4030 000:668.038 JLINK_WriteReg(R4, 0x00000000)
T4030 000:668.044 - 0.005ms returns 0
T4030 000:668.049 JLINK_WriteReg(R5, 0x00000000)
T4030 000:668.055 - 0.005ms returns 0
T4030 000:668.061 JLINK_WriteReg(R6, 0x00000000)
T4030 000:668.066 - 0.005ms returns 0
T4030 000:668.071 JLINK_WriteReg(R7, 0x00000000)
T4030 000:668.077 - 0.005ms returns 0
T4030 000:668.083 JLINK_WriteReg(R8, 0x00000000)
T4030 000:668.088 - 0.004ms returns 0
T4030 000:668.094 JLINK_WriteReg(R9, 0x20000220)
T4030 000:668.099 - 0.005ms returns 0
T4030 000:668.105 JLINK_WriteReg(R10, 0x00000000)
T4030 000:668.111 - 0.005ms returns 0
T4030 000:668.116 JLINK_WriteReg(R11, 0x00000000)
T4030 000:668.122 - 0.005ms returns 0
T4030 000:668.128 JLINK_WriteReg(R12, 0x00000000)
T4030 000:668.134 - 0.005ms returns 0
T4030 000:668.140 JLINK_WriteReg(R13 (SP), 0x20000800)
T4030 000:668.146 - 0.006ms returns 0
T4030 000:668.156 JLINK_WriteReg(R14, 0x20000001)
T4030 000:668.161 - 0.004ms returns 0
T4030 000:668.167 JLINK_WriteReg(R15 (PC), 0x200001A6)
T4030 000:668.172 - 0.005ms returns 0
T4030 000:668.177 JLINK_WriteReg(XPSR, 0x01000000)
T4030 000:668.182 - 0.005ms returns 0
T4030 000:668.188 JLINK_WriteReg(MSP, 0x20000800)
T4030 000:668.193 - 0.004ms returns 0
T4030 000:668.198 JLINK_WriteReg(PSP, 0x20000800)
T4030 000:668.203 - 0.004ms returns 0
T4030 000:668.209 JLINK_WriteReg(CFBP, 0x00000000)
T4030 000:668.214 - 0.005ms returns 0
T4030 000:668.221 JLINK_SetBPEx(Addr = 0x20000000, Type = 0xFFFFFFF2)
T4030 000:668.227 - 0.006ms returns 0x0000000B
T4030 000:668.233 JLINK_Go()
T4030 000:668.245   CPU_ReadMem(4 bytes @ 0xE0001000)
T4030 000:670.681 - 2.447ms 
T4030 000:670.764 JLINK_IsHalted()
T4030 000:671.121 - 0.356ms returns FALSE
T4030 000:671.148 JLINK_HasError()
T4030 000:672.346 JLINK_IsHalted()
T4030 000:672.689 - 0.342ms returns FALSE
T4030 000:672.712 JLINK_HasError()
T4030 000:674.354 JLINK_IsHalted()
T4030 000:674.703 - 0.349ms returns FALSE
T4030 000:674.730 JLINK_HasError()
T4030 000:676.676 JLINK_IsHalted()
T4030 000:676.991 - 0.314ms returns FALSE
T4030 000:677.013 JLINK_HasError()
T4030 000:678.679 JLINK_IsHalted()
T4030 000:679.061 - 0.382ms returns FALSE
T4030 000:679.083 JLINK_HasError()
T4030 000:680.184 JLINK_IsHalted()
T4030 000:680.674 - 0.489ms returns FALSE
T4030 000:680.753 JLINK_HasError()
T4030 000:682.195 JLINK_IsHalted()
T4030 000:682.618 - 0.421ms returns FALSE
T4030 000:682.684 JLINK_HasError()
T4030 000:684.354 JLINK_IsHalted()
T4030 000:684.703 - 0.348ms returns FALSE
T4030 000:684.721 JLINK_HasError()
T4030 000:686.398 JLINK_IsHalted()
T4030 000:686.730 - 0.332ms returns FALSE
T4030 000:686.754 JLINK_HasError()
T4030 000:688.373 JLINK_IsHalted()
T4030 000:688.760 - 0.387ms returns FALSE
T4030 000:688.810 JLINK_HasError()
T4030 000:690.395 JLINK_IsHalted()
T4030 000:692.338   CPU_ReadMem(2 bytes @ 0x20000000)
T4030 000:692.636 - 2.241ms returns TRUE
T4030 000:692.661 JLINK_ReadReg(R15 (PC))
T4030 000:692.672 - 0.011ms returns 0x20000000
T4030 000:692.682 JLINK_ClrBPEx(BPHandle = 0x0000000B)
T4030 000:692.691 - 0.009ms returns 0x00
T4030 000:692.701 JLINK_ReadReg(R0)
T4030 000:692.710 - 0.008ms returns 0x00000000
T4030 000:692.720 JLINK_HasError()
T4030 000:692.731 JLINK_WriteReg(R0, 0x00000002)
T4030 000:692.740 - 0.009ms returns 0
T4030 000:692.750 JLINK_WriteReg(R1, 0x00000330)
T4030 000:692.758 - 0.008ms returns 0
T4030 000:692.767 JLINK_WriteReg(R2, 0x20000224)
T4030 000:692.775 - 0.007ms returns 0
T4030 000:692.785 JLINK_WriteReg(R3, 0x00000000)
T4030 000:692.793 - 0.008ms returns 0
